
**** 04/26/24 18:37:10 *********** Evaluation PSpice (Nov 1999) **************

 * C:\Users\Luis\Documents\Escola\Atividades_USP\Circuitos\Ex1.sch


 ****     CIRCUIT DESCRIPTION


******************************************************************************




* Schematics Version 9.1 - Web Update 1
* Fri Apr 26 18:36:40 2024



** Analysis setup **
.OP 


* From [PSPICE NETLIST] section of pspiceev.ini:
.lib "nom.lib"

.INC "Ex1.net"

**** INCLUDING Ex1.net ****
* Schematics Netlist *



G_G1         0 N4 N2 N5 1.5
R_R2         0 N3  4  
R_R1         N4 N2  1  
H_H1         N4 N3 VH_H1 4
VH_H1        0 N6 0V
R_R5         N6 N1  1  
R_R4         0 N5  2  
R_R3         N2 N5  5  
I_I1         N2 N1 DC 6A  
V_V1         N1 N3 48V

**** RESUMING Ex1.cir ****
.INC "Ex1.als"



**** INCLUDING Ex1.als ****
* Schematics Aliases *

.ALIASES
G_G1            G1(3=0 4=N4 1=N2 2=N5 )
R_R2            R2(1=0 2=N3 )
R_R1            R1(1=N4 2=N2 )
H_H1            H1(3=N4 4=N3 )
VH_H1           H1(1=0 2=N6 )
R_R5            R5(1=N6 2=N1 )
R_R4            R4(1=0 2=N5 )
R_R3            R3(1=N2 2=N5 )
I_I1            I1(+=N2 -=N1 )
V_V1            V1(+=N1 -=N3 )
_    _(N2=N2)
_    _(N5=N5)
_    _(N4=N4)
_    _(N3=N3)
_    _(N6=N6)
_    _(N1=N1)
.ENDALIASES


**** RESUMING Ex1.cir ****
.probe


.END

**** 04/26/24 18:37:10 *********** Evaluation PSpice (Nov 1999) **************

 * C:\Users\Luis\Documents\Escola\Atividades_USP\Circuitos\Ex1.sch


 ****     SMALL SIGNAL BIAS SOLUTION       TEMPERATURE =   27.000 DEG C


******************************************************************************



 NODE   VOLTAGE     NODE   VOLTAGE     NODE   VOLTAGE     NODE   VOLTAGE


(   N1)   -8.6441  (   N2)  -24.5590  (   N3)  -56.6440  (   N4)  -22.0680      

(   N5)   -7.0169  (   N6)    0.0000  




    VOLTAGE SOURCE CURRENTS
    NAME         CURRENT

    VH_H1        8.644E+00
    V_V1         1.464E+01

    TOTAL POWER DISSIPATION  -7.03E+02  WATTS


**** 04/26/24 18:37:10 *********** Evaluation PSpice (Nov 1999) **************

 * C:\Users\Luis\Documents\Escola\Atividades_USP\Circuitos\Ex1.sch


 ****     OPERATING POINT INFORMATION      TEMPERATURE =   27.000 DEG C


******************************************************************************






**** VOLTAGE-CONTROLLED CURRENT SOURCES


NAME         G_G1      
I-SOURCE    -2.631E+01


**** CURRENT-CONTROLLED VOLTAGE SOURCES


NAME         H_H1      
V-SOURCE     3.458E+01
I-SOURCE    -2.881E+01

          JOB CONCLUDED

          TOTAL JOB TIME            0.00
