
**** 07/05/24 02:39:56 *********** Evaluation PSpice (Nov 1999) **************

 * C:\Users\Luis\Documents\Escola\Atividades_USP\Circuitos\EX3\PSPICE\14592348.sch


 ****     CIRCUIT DESCRIPTION


******************************************************************************




* Schematics Version 9.1 - Web Update 1
* Fri Jul 05 02:39:23 2024



** Analysis setup **
.ac DEC 1 0.318 0.318
.tran 0.1s 15 0 50ms


* From [PSPICE NETLIST] section of pspiceev.ini:
.lib "nom.lib"

.INC "14592348.net"

**** INCLUDING 14592348.net ****
* Schematics Netlist *



R_R1         $N_0002 $N_0001  2  
C_C1         0 $N_0003  0.5  
C_C4         0 BN  0.5  
L_L14         $N_0004 BN  0.5  
R_R10         $N_0005 $N_0004  2  
R_R2         $N_0003 $N_0006  1  
V_PRINT6         BN AN 0V
        
.PRINT        TRAN I(V_PRINT6)  
.PRINT        AC 
+ IM(V_PRINT6) 
+ IP(V_PRINT6)    
V_V1         $N_0002 0  AC 48
+SIN 0 48 0.318 0 0 90
V_V2         $N_0005 0  AC 48
+SIN 0 48 0.318 0 0 90
L_L4         0 $N_0007  1  
L_L15         0 $N_0008  1  
R_R11         $N_0008 AN  1  
R_R7         $N_0010 $N_0009  2  
C_C3         0 BT  0.5  
V_V3         $N_0010 0  AC 48
+SIN 0 48 0.318 0 0 90
L_L9         $N_0011 AT  0.5  
R_R9         BT $N_0011  1  
L_L10         $N_0009 BT  0.5  
L_L12         0 $N_0012  1  
R_R8         $N_0012 AT  1  
R_R15         $N_0014 $N_0013  0.6098  
L_L20         $N_0013 $N_0015  0.2561  
V_V4         $N_0014 0  AC 11.7429
+SIN 0 11.7429 0.318 0 0 -7.736
           
.PRINT         AC 
+ VM([BT],[AT]) 
+ VP([BT],[AT])    
R_R12         BN $N_0016  1  
L_L13         $N_0016 AN  0.5  
L_L3         $N_0006 $N_0017  0.5  
L_L21         $N_0015 0  0.5  
R_R3         $N_0007 $N_0017  1  
L_L1         $N_0001 $N_0003  0.5  
L_L         $N_0003 $N_0017  0.5  
I_I2         0 $N_0017  AC 3 -48
+SIN 0 3 0.318 0 0 42
I_I5         0 AN  AC 3 -48
+SIN 0 3 0.318 0 0 42
I_I4         0 AT  AC 3 -48
+SIN 0 3 0.318 0 0 42

**** RESUMING 14592348.cir ****
.INC "14592348.als"



**** INCLUDING 14592348.als ****
* Schematics Aliases *

.ALIASES
R_R1            R1(1=$N_0002 2=$N_0001 )
C_C1            C1(1=0 2=$N_0003 )
C_C4            C4(1=0 2=BN )
L_L14           L14(1=$N_0004 2=BN )
R_R10           R10(1=$N_0005 2=$N_0004 )
R_R2            R2(1=$N_0003 2=$N_0006 )
V_PRINT6          PRINT6(1=BN 2=AN )

V_V1            V1(+=$N_0002 -=0 )
V_V2            V2(+=$N_0005 -=0 )
L_L4            L4(1=0 2=$N_0007 )
L_L15           L15(1=0 2=$N_0008 )
R_R11           R11(1=$N_0008 2=AN )
R_R7            R7(1=$N_0010 2=$N_0009 )
C_C3            C3(1=0 2=BT )
V_V3            V3(+=$N_0010 -=0 )
L_L9            L9(1=$N_0011 2=AT )
R_R9            R9(1=BT 2=$N_0011 )
L_L10           L10(1=$N_0009 2=BT )
L_L12           L12(1=0 2=$N_0012 )
R_R8            R8(1=$N_0012 2=AT )
R_R15           R15(1=$N_0014 2=$N_0013 )
L_L20           L20(1=$N_0013 2=$N_0015 )
V_V4            V4(+=$N_0014 -=0 )
R_R12           R12(1=BN 2=$N_0016 )
L_L13           L13(1=$N_0016 2=AN )
L_L3            L3(1=$N_0006 2=$N_0017 )
L_L21           L21(1=$N_0015 2=0 )
R_R3            R3(1=$N_0007 2=$N_0017 )
L_L1            L1(1=$N_0001 2=$N_0003 )
L_L             L(1=$N_0003 2=$N_0017 )
I_I2            I2(+=0 -=$N_0017 )
I_I5            I5(+=0 -=AN )
I_I4            I4(+=0 -=AT )
_    _(BN=BN)
_    _(AN=AN)
_    _(BT=BT)
_    _(AT=AT)
.ENDALIASES


**** RESUMING 14592348.cir ****
.probe


.END

**** 07/05/24 02:39:56 *********** Evaluation PSpice (Nov 1999) **************

 * C:\Users\Luis\Documents\Escola\Atividades_USP\Circuitos\EX3\PSPICE\14592348.sch


 ****     SMALL SIGNAL BIAS SOLUTION       TEMPERATURE =   27.000 DEG C


******************************************************************************



 NODE   VOLTAGE     NODE   VOLTAGE     NODE   VOLTAGE     NODE   VOLTAGE


(   AN)    0.0000  (   AT)    0.0000  (   BN)    0.0000  (   BT)    0.0000      

($N_0001)    0.0000                   ($N_0002)    0.0000                       

($N_0003)    0.0000                   ($N_0004)    0.0000                       

($N_0005)    0.0000                   ($N_0006)    0.0000                       

($N_0007)    0.0000                   ($N_0008)    0.0000                       

($N_0009)    0.0000                   ($N_0010)    0.0000                       

($N_0011)    0.0000                   ($N_0012)    0.0000                       

($N_0013)    0.0000                   ($N_0014)    0.0000                       

($N_0015)    0.0000                   ($N_0016)    0.0000                       

($N_0017)    0.0000                   




    VOLTAGE SOURCE CURRENTS
    NAME         CURRENT

    V_PRINT6     0.000E+00
    V_V1         0.000E+00
    V_V2         0.000E+00
    V_V3         0.000E+00
    V_V4         0.000E+00

    TOTAL POWER DISSIPATION   0.00E+00  WATTS


**** 07/05/24 02:39:56 *********** Evaluation PSpice (Nov 1999) **************

 * C:\Users\Luis\Documents\Escola\Atividades_USP\Circuitos\EX3\PSPICE\14592348.sch


 ****     AC ANALYSIS                      TEMPERATURE =   27.000 DEG C


******************************************************************************



  FREQ        IM(V_PRINT6)IP(V_PRINT6)


   3.180E-01   1.476E+01  -1.376E+02

**** 07/05/24 02:39:56 *********** Evaluation PSpice (Nov 1999) **************

 * C:\Users\Luis\Documents\Escola\Atividades_USP\Circuitos\EX3\PSPICE\14592348.sch


 ****     AC ANALYSIS                      TEMPERATURE =   27.000 DEG C


******************************************************************************



  FREQ        VM(BT,AT)   VP(BT,AT)   


   3.180E-01   1.175E+01  -9.764E+01

**** 07/05/24 02:39:56 *********** Evaluation PSpice (Nov 1999) **************

 * C:\Users\Luis\Documents\Escola\Atividades_USP\Circuitos\EX3\PSPICE\14592348.sch


 ****     INITIAL TRANSIENT SOLUTION       TEMPERATURE =   27.000 DEG C


******************************************************************************



 NODE   VOLTAGE     NODE   VOLTAGE     NODE   VOLTAGE     NODE   VOLTAGE


(   AN)   17.3380  (   AT)   13.5060  (   BN)   17.3380  (   BT)   25.0040      

($N_0001)   17.3380                   ($N_0002)   48.0000                       

($N_0003)   17.3380                   ($N_0004)   17.3380                       

($N_0005)   48.0000                   ($N_0006)   17.3380                       

($N_0007)    0.0000                   ($N_0008)    0.0000                       

($N_0009)   25.0040                   ($N_0010)   48.0000                       

($N_0011)   13.5060                   ($N_0012)    0.0000                       

($N_0013)    0.0000                   ($N_0014)   -1.5807                       

($N_0015)    0.0000                   ($N_0016)   17.3380                       

($N_0017)   17.3380                   




    VOLTAGE SOURCE CURRENTS
    NAME         CURRENT

    V_PRINT6     1.533E+01
    V_V1        -1.533E+01
    V_V2        -1.533E+01
    V_V3        -1.150E+01
    V_V4         2.592E+00

    TOTAL POWER DISSIPATION   2.03E+03  WATTS


**** 07/05/24 02:39:56 *********** Evaluation PSpice (Nov 1999) **************

 * C:\Users\Luis\Documents\Escola\Atividades_USP\Circuitos\EX3\PSPICE\14592348.sch


 ****     TRANSIENT ANALYSIS               TEMPERATURE =   27.000 DEG C


******************************************************************************



  TIME        I(V_PRINT6) 

   0.000E+00   1.533E+01
   1.000E-01   1.493E+01
   2.000E-01   1.463E+01
   3.000E-01   1.444E+01
   4.000E-01   1.436E+01
   5.000E-01   1.436E+01
   6.000E-01   1.440E+01
   7.000E-01   1.444E+01
   8.000E-01   1.442E+01
   9.000E-01   1.429E+01
   1.000E+00   1.397E+01
   1.100E+00   1.343E+01
   1.200E+00   1.261E+01
   1.300E+00   1.149E+01
   1.400E+00   1.006E+01
   1.500E+00   8.327E+00
   1.600E+00   6.311E+00
   1.700E+00   4.055E+00
   1.800E+00   1.619E+00
   1.900E+00  -9.261E-01
   2.000E+00  -3.498E+00
   2.100E+00  -6.006E+00
   2.200E+00  -8.359E+00
   2.300E+00  -1.047E+01
   2.400E+00  -1.225E+01
   2.500E+00  -1.362E+01
   2.600E+00  -1.453E+01
   2.700E+00  -1.493E+01
   2.800E+00  -1.480E+01
   2.900E+00  -1.413E+01
   3.000E+00  -1.294E+01
   3.100E+00  -1.127E+01
   3.200E+00  -9.171E+00
   3.300E+00  -6.726E+00
   3.400E+00  -4.020E+00
   3.500E+00  -1.157E+00
   3.600E+00   1.754E+00
   3.700E+00   4.604E+00
   3.800E+00   7.280E+00
   3.900E+00   9.678E+00
   4.000E+00   1.171E+01
   4.100E+00   1.328E+01
   4.200E+00   1.434E+01
   4.300E+00   1.485E+01
   4.400E+00   1.477E+01
   4.500E+00   1.412E+01
   4.600E+00   1.292E+01
   4.700E+00   1.122E+01
   4.800E+00   9.072E+00
   4.900E+00   6.570E+00
   5.000E+00   3.811E+00
   5.100E+00   9.034E-01
   5.200E+00  -2.039E+00
   5.300E+00  -4.900E+00
   5.400E+00  -7.566E+00
   5.500E+00  -9.932E+00
   5.600E+00  -1.190E+01
   5.700E+00  -1.340E+01
   5.800E+00  -1.437E+01
   5.900E+00  -1.477E+01
   6.000E+00  -1.459E+01
   6.100E+00  -1.382E+01
   6.200E+00  -1.251E+01
   6.300E+00  -1.070E+01
   6.400E+00  -8.470E+00
   6.500E+00  -5.902E+00
   6.600E+00  -3.100E+00
   6.700E+00  -1.763E-01
   6.800E+00   2.754E+00
   6.900E+00   5.575E+00
   7.000E+00   8.173E+00
   7.100E+00   1.045E+01
   7.200E+00   1.230E+01
   7.300E+00   1.367E+01
   7.400E+00   1.450E+01
   7.500E+00   1.474E+01
   7.600E+00   1.441E+01
   7.700E+00   1.349E+01
   7.800E+00   1.205E+01
   7.900E+00   1.012E+01
   8.000E+00   7.790E+00
   8.100E+00   5.151E+00
   8.200E+00   2.308E+00
   8.300E+00  -6.271E-01
   8.400E+00  -3.537E+00
   8.500E+00  -6.306E+00
   8.600E+00  -8.824E+00
   8.700E+00  -1.099E+01
   8.800E+00  -1.272E+01
   8.900E+00  -1.394E+01
   9.000E+00  -1.461E+01
   9.100E+00  -1.470E+01
   9.200E+00  -1.420E+01
   9.300E+00  -1.314E+01
   9.400E+00  -1.155E+01
   9.500E+00  -9.508E+00
   9.600E+00  -7.085E+00
   9.700E+00  -4.379E+00
   9.800E+00  -1.500E+00
   9.900E+00   1.439E+00
   1.000E+01   4.321E+00
   1.010E+01   7.031E+00
   1.020E+01   9.461E+00
   1.030E+01   1.151E+01
   1.040E+01   1.311E+01
   1.050E+01   1.418E+01
   1.060E+01   1.469E+01
   1.070E+01   1.462E+01
   1.080E+01   1.396E+01
   1.090E+01   1.275E+01
   1.100E+01   1.103E+01
   1.110E+01   8.875E+00
   1.120E+01   6.364E+00
   1.130E+01   3.599E+00
   1.140E+01   6.918E-01
   1.150E+01  -2.243E+00
   1.160E+01  -5.089E+00
   1.170E+01  -7.732E+00
   1.180E+01  -1.007E+01
   1.190E+01  -1.200E+01
   1.200E+01  -1.346E+01
   1.210E+01  -1.438E+01
   1.220E+01  -1.473E+01
   1.230E+01  -1.449E+01
   1.240E+01  -1.368E+01
   1.250E+01  -1.232E+01
   1.260E+01  -1.047E+01
   1.270E+01  -8.209E+00
   1.280E+01  -5.618E+00
   1.290E+01  -2.802E+00
   1.300E+01   1.241E-01
   1.310E+01   3.046E+00
   1.320E+01   5.846E+00
   1.330E+01   8.414E+00
   1.340E+01   1.065E+01
   1.350E+01   1.246E+01
   1.360E+01   1.377E+01
   1.370E+01   1.453E+01
   1.380E+01   1.472E+01
   1.390E+01   1.432E+01
   1.400E+01   1.335E+01
   1.410E+01   1.186E+01
   1.420E+01   9.885E+00
   1.430E+01   7.520E+00
   1.440E+01   4.856E+00
   1.450E+01   1.999E+00
   1.460E+01  -9.383E-01
   1.470E+01  -3.838E+00
   1.480E+01  -6.585E+00
   1.490E+01  -9.069E+00
   1.500E+01  -1.120E+01




          JOB CONCLUDED

          TOTAL JOB TIME             .02
