
**** 07/03/24 21:44:01 *********** Evaluation PSpice (Nov 1999) **************

 * C:\Users\Luis\Documents\Escola\Atividades_USP\Circuitos\EX3\14592348.sch


 ****     CIRCUIT DESCRIPTION


******************************************************************************




* Schematics Version 9.1 - Web Update 1
* Wed Jul 03 21:44:00 2024



** Analysis setup **
.ac DEC 1 0.318 0.318
.tran 0.1s 15 0 50ms


* From [PSPICE NETLIST] section of pspiceev.ini:
.lib "nom.lib"

.INC "14592348.net"

**** INCLUDING 14592348.net ****
* Schematics Netlist *



R_R1         $N_0002 $N_0001  2  
C_C1         0 $N_0003  0.5  
C_C4         0 BN  0.5  
L_L14         $N_0004 BN  0.5  
R_R10         $N_0005 $N_0004  2  
R_R2         $N_0003 $N_0006  1  
V_PRINT6         BN AN 0V
        
.PRINT        TRAN I(V_PRINT6)  
.PRINT        AC 
+ IM(V_PRINT6) 
+ IP(V_PRINT6)    
V_V1         $N_0002 0  AC 48
+SIN 0 48 0.318 0 0 90
V_V2         $N_0005 0  AC 48
+SIN 0 48 0.318 0 0 90
L_L4         0 $N_0007  1  
I_I5         AN 0  AC 3
+SIN 0 3 0.318 0 0 42
L_L15         0 $N_0008  1  
R_R11         $N_0008 AN  1  
R_R7         $N_0010 $N_0009  2  
C_C3         0 BT  0.5  
V_V3         $N_0010 0  AC 48
+SIN 0 48 0.318 0 0 90
L_L9         $N_0011 AT  0.5  
R_R9         BT $N_0011  1  
L_L10         $N_0009 BT  0.5  
I_I4         AT 0  AC 3
+SIN 0 3 0.318 0 0 42
L_L12         0 $N_0012  1  
R_R8         $N_0012 AT  1  
R_R15         $N_0014 $N_0013  0.6098  
L_L20         $N_0013 $N_0015  0.2561  
V_V4         $N_0014 0  AC 11.7429
+SIN 0 11.7429 0.318 0 0 -7.736
R_R16         $N_0017 $N_0016  0.6098  
L_L23         $N_0016 $N_0018  0.2561  
V_V5         $N_0017 0  AC 8.075
+SIN 0 8.075 0.318 0 0 15.89
           
.PRINT         AC 
+ VM([BT],[AT]) 
+ VP([BT],[AT])    
R_R12         BN $N_0019  1  
L_L13         $N_0019 AN  0.5  
L_L3         $N_0006 $N_0020  0.5  
I_I2         $N_0021 0  AC 3
+SIN 0 3 0.318 0 0 42
L_L22         $N_0018 0  0.5  
L_L21         $N_0015 0  0.5  
R_R3         $N_0007 $N_0020  1  
L_L1         $N_0001 $N_0003  0.5  
L_L         $N_0003 $N_0020  0.5  
V_PRINT18         $N_0021 $N_0020 0V
        
.PRINT        TRAN I(V_PRINT18)  
.PRINT        AC 
+ IM(V_PRINT18) 
+ IP(V_PRINT18)    

**** RESUMING 14592348.cir ****
.INC "14592348.als"



**** INCLUDING 14592348.als ****
* Schematics Aliases *

.ALIASES
R_R1            R1(1=$N_0002 2=$N_0001 )
C_C1            C1(1=0 2=$N_0003 )
C_C4            C4(1=0 2=BN )
L_L14           L14(1=$N_0004 2=BN )
R_R10           R10(1=$N_0005 2=$N_0004 )
R_R2            R2(1=$N_0003 2=$N_0006 )
V_PRINT6          PRINT6(1=BN 2=AN )

V_V1            V1(+=$N_0002 -=0 )
V_V2            V2(+=$N_0005 -=0 )
L_L4            L4(1=0 2=$N_0007 )
I_I5            I5(+=AN -=0 )
L_L15           L15(1=0 2=$N_0008 )
R_R11           R11(1=$N_0008 2=AN )
R_R7            R7(1=$N_0010 2=$N_0009 )
C_C3            C3(1=0 2=BT )
V_V3            V3(+=$N_0010 -=0 )
L_L9            L9(1=$N_0011 2=AT )
R_R9            R9(1=BT 2=$N_0011 )
L_L10           L10(1=$N_0009 2=BT )
I_I4            I4(+=AT -=0 )
L_L12           L12(1=0 2=$N_0012 )
R_R8            R8(1=$N_0012 2=AT )
R_R15           R15(1=$N_0014 2=$N_0013 )
L_L20           L20(1=$N_0013 2=$N_0015 )
V_V4            V4(+=$N_0014 -=0 )
R_R16           R16(1=$N_0017 2=$N_0016 )
L_L23           L23(1=$N_0016 2=$N_0018 )
V_V5            V5(+=$N_0017 -=0 )
R_R12           R12(1=BN 2=$N_0019 )
L_L13           L13(1=$N_0019 2=AN )
L_L3            L3(1=$N_0006 2=$N_0020 )
I_I2            I2(+=$N_0021 -=0 )
L_L22           L22(1=$N_0018 2=0 )
L_L21           L21(1=$N_0015 2=0 )
R_R3            R3(1=$N_0007 2=$N_0020 )
L_L1            L1(1=$N_0001 2=$N_0003 )
L_L             L(1=$N_0003 2=$N_0020 )
V_PRINT18          PRINT18(1=$N_0021 2=$N_0020 )

_    _(BN=BN)
_    _(AN=AN)
_    _(BT=BT)
_    _(AT=AT)
.ENDALIASES


**** RESUMING 14592348.cir ****
.probe


.END

**** 07/03/24 21:44:01 *********** Evaluation PSpice (Nov 1999) **************

 * C:\Users\Luis\Documents\Escola\Atividades_USP\Circuitos\EX3\14592348.sch


 ****     SMALL SIGNAL BIAS SOLUTION       TEMPERATURE =   27.000 DEG C


******************************************************************************



 NODE   VOLTAGE     NODE   VOLTAGE     NODE   VOLTAGE     NODE   VOLTAGE


(   AN)    0.0000  (   AT)    0.0000  (   BN)    0.0000  (   BT)    0.0000      

($N_0001)    0.0000                   ($N_0002)    0.0000                       

($N_0003)    0.0000                   ($N_0004)    0.0000                       

($N_0005)    0.0000                   ($N_0006)    0.0000                       

($N_0007)    0.0000                   ($N_0008)    0.0000                       

($N_0009)    0.0000                   ($N_0010)    0.0000                       

($N_0011)    0.0000                   ($N_0012)    0.0000                       

($N_0013)    0.0000                   ($N_0014)    0.0000                       

($N_0015)    0.0000                   ($N_0016)    0.0000                       

($N_0017)    0.0000                   ($N_0018)    0.0000                       

($N_0019)    0.0000                   ($N_0020)    0.0000                       

($N_0021)    0.0000                   




    VOLTAGE SOURCE CURRENTS
    NAME         CURRENT

    V_PRINT6     0.000E+00
    V_V1         0.000E+00
    V_V2         0.000E+00
    V_V3         0.000E+00
    V_V4         0.000E+00
    V_V5         0.000E+00
    V_PRINT18    0.000E+00

    TOTAL POWER DISSIPATION   0.00E+00  WATTS


**** 07/03/24 21:44:01 *********** Evaluation PSpice (Nov 1999) **************

 * C:\Users\Luis\Documents\Escola\Atividades_USP\Circuitos\EX3\14592348.sch


 ****     AC ANALYSIS                      TEMPERATURE =   27.000 DEG C


******************************************************************************



  FREQ        IM(V_PRINT6)IP(V_PRINT6)


   3.180E-01   1.014E+01  -1.141E+02

**** 07/03/24 21:44:01 *********** Evaluation PSpice (Nov 1999) **************

 * C:\Users\Luis\Documents\Escola\Atividades_USP\Circuitos\EX3\14592348.sch


 ****     AC ANALYSIS                      TEMPERATURE =   27.000 DEG C


******************************************************************************



  FREQ        VM(BT,AT)   VP(BT,AT)   


   3.180E-01   8.075E+00  -7.411E+01

**** 07/03/24 21:44:01 *********** Evaluation PSpice (Nov 1999) **************

 * C:\Users\Luis\Documents\Escola\Atividades_USP\Circuitos\EX3\14592348.sch


 ****     AC ANALYSIS                      TEMPERATURE =   27.000 DEG C


******************************************************************************



  FREQ        IM(V_PRINT18)IP(V_PRINT18)


   3.180E-01   3.000E+00   1.800E+02

**** 07/03/24 21:44:01 *********** Evaluation PSpice (Nov 1999) **************

 * C:\Users\Luis\Documents\Escola\Atividades_USP\Circuitos\EX3\14592348.sch


 ****     INITIAL TRANSIENT SOLUTION       TEMPERATURE =   27.000 DEG C


******************************************************************************



 NODE   VOLTAGE     NODE   VOLTAGE     NODE   VOLTAGE     NODE   VOLTAGE


(   AN)   14.6620  (   AT)   10.4940  (   BN)   14.6620  (   BT)   22.9960      

($N_0001)   14.6620                   ($N_0002)   48.0000                       

($N_0003)   14.6620                   ($N_0004)   14.6620                       

($N_0005)   48.0000                   ($N_0006)   14.6620                       

($N_0007)    0.0000                   ($N_0008)    0.0000                       

($N_0009)   22.9960                   ($N_0010)   48.0000                       

($N_0011)   10.4940                   ($N_0012)    0.0000                       

($N_0013)    0.0000                   ($N_0014)   -1.5807                       

($N_0015)    0.0000                   ($N_0016)    0.0000                       

($N_0017)    2.2109                   ($N_0018)    0.0000                       

($N_0019)   14.6620                   ($N_0020)   14.6620                       

($N_0021)   14.6620                   




    VOLTAGE SOURCE CURRENTS
    NAME         CURRENT

    V_PRINT6     1.667E+01
    V_V1        -1.667E+01
    V_V2        -1.667E+01
    V_V3        -1.250E+01
    V_V4         2.592E+00
    V_V5        -3.626E+00
    V_PRINT18   -2.007E+00

    TOTAL POWER DISSIPATION   2.21E+03  WATTS


**** 07/03/24 21:44:01 *********** Evaluation PSpice (Nov 1999) **************

 * C:\Users\Luis\Documents\Escola\Atividades_USP\Circuitos\EX3\14592348.sch


 ****     TRANSIENT ANALYSIS               TEMPERATURE =   27.000 DEG C


******************************************************************************



  TIME        I(V_PRINT6) 

   0.000E+00   1.667E+01
   1.000E-01   1.707E+01
   2.000E-01   1.736E+01
   3.000E-01   1.753E+01
   4.000E-01   1.754E+01
   5.000E-01   1.737E+01
   6.000E-01   1.700E+01
   7.000E-01   1.640E+01
   8.000E-01   1.554E+01
   9.000E-01   1.442E+01
   1.000E+00   1.303E+01
   1.100E+00   1.137E+01
   1.200E+00   9.454E+00
   1.300E+00   7.321E+00
   1.400E+00   5.008E+00
   1.500E+00   2.567E+00
   1.600E+00   6.218E-02
   1.700E+00  -2.437E+00
   1.800E+00  -4.855E+00
   1.900E+00  -7.115E+00
   2.000E+00  -9.140E+00
   2.100E+00  -1.086E+01
   2.200E+00  -1.221E+01
   2.300E+00  -1.315E+01
   2.400E+00  -1.363E+01
   2.500E+00  -1.363E+01
   2.600E+00  -1.314E+01
   2.700E+00  -1.219E+01
   2.800E+00  -1.080E+01
   2.900E+00  -9.015E+00
   3.000E+00  -6.906E+00
   3.100E+00  -4.547E+00
   3.200E+00  -2.024E+00
   3.300E+00   5.667E-01
   3.400E+00   3.129E+00
   3.500E+00   5.565E+00
   3.600E+00   7.783E+00
   3.700E+00   9.695E+00
   3.800E+00   1.123E+01
   3.900E+00   1.233E+01
   4.000E+00   1.295E+01
   4.100E+00   1.306E+01
   4.200E+00   1.267E+01
   4.300E+00   1.178E+01
   4.400E+00   1.043E+01
   4.500E+00   8.678E+00
   4.600E+00   6.587E+00
   4.700E+00   4.241E+00
   4.800E+00   1.731E+00
   4.900E+00  -8.429E-01
   5.000E+00  -3.381E+00
   5.100E+00  -5.782E+00
   5.200E+00  -7.952E+00
   5.300E+00  -9.805E+00
   5.400E+00  -1.127E+01
   5.500E+00  -1.228E+01
   5.600E+00  -1.281E+01
   5.700E+00  -1.283E+01
   5.800E+00  -1.234E+01
   5.900E+00  -1.137E+01
   6.000E+00  -9.937E+00
   6.100E+00  -8.114E+00
   6.200E+00  -5.971E+00
   6.300E+00  -3.591E+00
   6.400E+00  -1.070E+00
   6.500E+00   1.493E+00
   6.600E+00   3.995E+00
   6.700E+00   6.338E+00
   6.800E+00   8.428E+00
   6.900E+00   1.018E+01
   7.000E+00   1.153E+01
   7.100E+00   1.242E+01
   7.200E+00   1.282E+01
   7.300E+00   1.270E+01
   7.400E+00   1.208E+01
   7.500E+00   1.098E+01
   7.600E+00   9.448E+00
   7.700E+00   7.537E+00
   7.800E+00   5.325E+00
   7.900E+00   2.902E+00
   8.000E+00   3.634E-01
   8.100E+00  -2.189E+00
   8.200E+00  -4.654E+00
   8.300E+00  -6.934E+00
   8.400E+00  -8.938E+00
   8.500E+00  -1.059E+01
   8.600E+00  -1.181E+01
   8.700E+00  -1.257E+01
   8.800E+00  -1.283E+01
   8.900E+00  -1.257E+01
   9.000E+00  -1.182E+01
   9.100E+00  -1.059E+01
   9.200E+00  -8.950E+00
   9.300E+00  -6.949E+00
   9.400E+00  -4.671E+00
   9.500E+00  -2.208E+00
   9.600E+00   3.431E-01
   9.700E+00   2.881E+00
   9.800E+00   5.303E+00
   9.900E+00   7.515E+00
   1.000E+01   9.428E+00
   1.010E+01   1.096E+01
   1.020E+01   1.207E+01
   1.030E+01   1.269E+01
   1.040E+01   1.280E+01
   1.050E+01   1.241E+01
   1.060E+01   1.152E+01
   1.070E+01   1.017E+01
   1.080E+01   8.423E+00
   1.090E+01   6.337E+00
   1.100E+01   3.998E+00
   1.110E+01   1.500E+00
   1.120E+01  -1.057E+00
   1.130E+01  -3.573E+00
   1.140E+01  -5.946E+00
   1.150E+01  -8.083E+00
   1.160E+01  -9.898E+00
   1.170E+01  -1.132E+01
   1.180E+01  -1.229E+01
   1.190E+01  -1.277E+01
   1.200E+01  -1.275E+01
   1.210E+01  -1.221E+01
   1.220E+01  -1.119E+01
   1.230E+01  -9.730E+00
   1.240E+01  -7.878E+00
   1.250E+01  -5.713E+00
   1.260E+01  -3.321E+00
   1.270E+01  -7.970E-01
   1.280E+01   1.759E+00
   1.290E+01   4.245E+00
   1.300E+01   6.562E+00
   1.310E+01   8.618E+00
   1.320E+01   1.033E+01
   1.330E+01   1.163E+01
   1.340E+01   1.247E+01
   1.350E+01   1.281E+01
   1.360E+01   1.265E+01
   1.370E+01   1.198E+01
   1.380E+01   1.083E+01
   1.390E+01   9.251E+00
   1.400E+01   7.305E+00
   1.410E+01   5.068E+00
   1.420E+01   2.629E+00
   1.430E+01   8.537E-02
   1.440E+01  -2.461E+00
   1.450E+01  -4.910E+00
   1.460E+01  -7.164E+00
   1.470E+01  -9.132E+00
   1.480E+01  -1.074E+01
   1.490E+01  -1.192E+01
   1.500E+01  -1.263E+01



**** 07/03/24 21:44:01 *********** Evaluation PSpice (Nov 1999) **************

 * C:\Users\Luis\Documents\Escola\Atividades_USP\Circuitos\EX3\14592348.sch


 ****     TRANSIENT ANALYSIS               TEMPERATURE =   27.000 DEG C


******************************************************************************



  TIME        I(V_PRINT18)

   0.000E+00  -2.007E+00
   1.000E-01  -2.408E+00
   2.000E-01  -2.714E+00
   3.000E-01  -2.912E+00
   4.000E-01  -2.995E+00
   5.000E-01  -2.958E+00
   6.000E-01  -2.804E+00
   7.000E-01  -2.538E+00
   8.000E-01  -2.171E+00
   9.000E-01  -1.718E+00
   1.000E+00  -1.196E+00
   1.100E+00  -6.267E-01
   1.200E+00  -3.259E-02
   1.300E+00   5.629E-01
   1.400E+00   1.136E+00
   1.500E+00   1.664E+00
   1.600E+00   2.125E+00
   1.700E+00   2.503E+00
   1.800E+00   2.780E+00
   1.900E+00   2.947E+00
   2.000E+00   2.997E+00
   2.100E+00   2.927E+00
   2.200E+00   2.741E+00
   2.300E+00   2.446E+00
   2.400E+00   2.053E+00
   2.500E+00   1.579E+00
   2.600E+00   1.042E+00
   2.700E+00   4.638E-01
   2.800E+00  -1.331E-01
   2.900E+00  -7.247E-01
   3.000E+00  -1.287E+00
   3.100E+00  -1.799E+00
   3.200E+00  -2.239E+00
   3.300E+00  -2.590E+00
   3.400E+00  -2.838E+00
   3.500E+00  -2.973E+00
   3.600E+00  -2.989E+00
   3.700E+00  -2.887E+00
   3.800E+00  -2.670E+00
   3.900E+00  -2.346E+00
   4.000E+00  -1.930E+00
   4.100E+00  -1.436E+00
   4.200E+00  -8.854E-01
   4.300E+00  -2.995E-01
   4.400E+00   2.983E-01
   4.500E+00   8.843E-01
   4.600E+00   1.435E+00
   4.700E+00   1.929E+00
   4.800E+00   2.346E+00
   4.900E+00   2.669E+00
   5.000E+00   2.887E+00
   5.100E+00   2.989E+00
   5.200E+00   2.973E+00
   5.300E+00   2.838E+00
   5.400E+00   2.590E+00
   5.500E+00   2.240E+00
   5.600E+00   1.800E+00
   5.700E+00   1.289E+00
   5.800E+00   7.258E-01
   5.900E+00   1.342E-01
   6.000E+00  -4.627E-01
   6.100E+00  -1.041E+00
   6.200E+00  -1.578E+00
   6.300E+00  -2.053E+00
   6.400E+00  -2.445E+00
   6.500E+00  -2.740E+00
   6.600E+00  -2.927E+00
   6.700E+00  -2.997E+00
   6.800E+00  -2.947E+00
   6.900E+00  -2.780E+00
   7.000E+00  -2.503E+00
   7.100E+00  -2.126E+00
   7.200E+00  -1.665E+00
   7.300E+00  -1.137E+00
   7.400E+00  -5.640E-01
   7.500E+00   3.143E-02
   7.600E+00   6.256E-01
   7.700E+00   1.195E+00
   7.800E+00   1.717E+00
   7.900E+00   2.170E+00
   8.000E+00   2.537E+00
   8.100E+00   2.803E+00
   8.200E+00   2.958E+00
   8.300E+00   2.995E+00
   8.400E+00   2.913E+00
   8.500E+00   2.714E+00
   8.600E+00   2.408E+00
   8.700E+00   2.006E+00
   8.800E+00   1.524E+00
   8.900E+00   9.820E-01
   9.000E+00   4.005E-01
   9.100E+00  -1.970E-01
   9.200E+00  -7.866E-01
   9.300E+00  -1.345E+00
   9.400E+00  -1.850E+00
   9.500E+00  -2.281E+00
   9.600E+00  -2.621E+00
   9.700E+00  -2.858E+00
   9.800E+00  -2.980E+00
   9.900E+00  -2.984E+00
   1.000E+01  -2.869E+00
   1.010E+01  -2.640E+00
   1.020E+01  -2.306E+00
   1.030E+01  -1.880E+00
   1.040E+01  -1.380E+00
   1.050E+01  -8.240E-01
   1.060E+01  -2.357E-01
   1.070E+01   3.620E-01
   1.080E+01   9.452E-01
   1.090E+01   1.491E+00
   1.100E+01   1.977E+00
   1.110E+01   2.385E+00
   1.120E+01   2.698E+00
   1.130E+01   2.903E+00
   1.140E+01   2.993E+00
   1.150E+01   2.964E+00
   1.160E+01   2.817E+00
   1.170E+01   2.558E+00
   1.180E+01   2.197E+00
   1.190E+01   1.748E+00
   1.200E+01   1.230E+00
   1.210E+01   6.635E-01
   1.220E+01   7.025E-02
   1.230E+01  -5.258E-01
   1.240E+01  -1.101E+00
   1.250E+01  -1.632E+00
   1.260E+01  -2.099E+00
   1.270E+01  -2.482E+00
   1.280E+01  -2.766E+00
   1.290E+01  -2.940E+00
   1.300E+01  -2.997E+00
   1.310E+01  -2.935E+00
   1.320E+01  -2.756E+00
   1.330E+01  -2.467E+00
   1.340E+01  -2.081E+00
   1.350E+01  -1.611E+00
   1.360E+01  -1.078E+00
   1.370E+01  -5.010E-01
   1.380E+01   9.544E-02
   1.390E+01   6.881E-01
   1.400E+01   1.253E+00
   1.410E+01   1.769E+00
   1.420E+01   2.214E+00
   1.430E+01   2.571E+00
   1.440E+01   2.825E+00
   1.450E+01   2.968E+00
   1.460E+01   2.992E+00
   1.470E+01   2.897E+00
   1.480E+01   2.687E+00
   1.490E+01   2.370E+00
   1.500E+01   1.960E+00




          JOB CONCLUDED

          TOTAL JOB TIME             .03
